Time [s], Analyzer Name, Decoded Protocol Result
0.000204666666667,I2C,Setup Write to [0] + ACK
0.003799583333333,I2C,5 + ACK
0.007405916666667,I2C,4 + ACK
0.011002166666667,I2C,132 + ACK
0.014601916666667,I2C,136 + ACK
0.018202500000000,I2C,19 + ACK
0.021802833333333,I2C,216 + ACK
0.400674083333333,I2C,Setup Read to [211] + ACK
0.404280083333333,I2C,7 + ACK
0.407875416666667,I2C,5 + ACK
0.411475833333333,I2C,58 + ACK
0.415077333333333,I2C,0 + ACK
0.418677416666667,I2C,18 + ACK
0.422283416666667,I2C,66 + ACK
0.425878333333333,I2C,0 + ACK
0.429478916666667,I2C,102 + NAK
0.801028166666667,I2C,Setup Write to [0] + ACK
0.804628916666667,I2C,9 + ACK
0.808230416666667,I2C,6 + ACK
0.811835833333333,I2C,215 + ACK
0.815430916666667,I2C,20 + ACK
0.819046583333333,I2C,0 + ACK
0.822631916666667,I2C,159 + ACK
0.826233416666667,I2C,2 + ACK
0.829838750000000,I2C,138 + ACK
0.833433916666667,I2C,3 + ACK
0.837040583333333,I2C,216 + ACK
1.201662750000000,I2C,Setup Write to [0] + ACK
1.205263500000000,I2C,5 + ACK
1.208864500000000,I2C,4 + ACK
1.212465666666667,I2C,132 + ACK
1.216071500000000,I2C,136 + ACK
1.219666000000000,I2C,19 + ACK
1.223266833333333,I2C,216 + ACK
1.601543583333333,I2C,Setup Read to [211] + ACK
1.605136833333333,I2C,7 + ACK
1.608743416666667,I2C,5 + ACK
1.612338166666667,I2C,58 + ACK
1.615938750000000,I2C,0 + ACK
1.619486916666667,I2C,18 + ACK
1.623140083333333,I2C,66 + ACK
1.626746583333333,I2C,0 + ACK
1.630341500000000,I2C,102 + NAK
2.001490416666666,I2C,Setup Write to [0] + ACK
2.005091083333333,I2C,9 + ACK
2.008692416666667,I2C,6 + ACK
2.012297833333333,I2C,215 + ACK
2.015893083333333,I2C,20 + ACK
2.019499750000000,I2C,0 + ACK
2.023094166666667,I2C,159 + ACK
2.026696083333333,I2C,2 + ACK
2.030301083333333,I2C,138 + ACK
2.033896166666667,I2C,3 + ACK
2.037502500000000,I2C,216 + ACK
2.401644583333333,I2C,Setup Write to [0] + ACK
2.405245333333333,I2C,5 + ACK
2.408846833333333,I2C,4 + ACK
2.412452000000000,I2C,132 + ACK
2.416047250000000,I2C,136 + ACK
2.419663000000000,I2C,19 + ACK
2.423248250000000,I2C,216 + ACK
2.802398583333333,I2C,Setup Read to [211] + ACK
2.806015833333333,I2C,7 + ACK
2.809600166666667,I2C,5 + ACK
2.813200500000000,I2C,58 + ACK
2.816801166666667,I2C,0 + ACK
2.820402083333333,I2C,18 + ACK
2.824009166666666,I2C,66 + ACK
2.827603250000000,I2C,0 + ACK
2.831204166666667,I2C,102 + NAK
3.201887916666667,I2C,Setup Write to [0] + ACK
3.205517416666666,I2C,9 + ACK
3.209147416666667,I2C,6 + ACK
3.212761250000000,I2C,215 + ACK
3.216355916666667,I2C,20 + ACK
3.219971916666667,I2C,0 + ACK
3.223557583333333,I2C,159 + ACK
3.227158750000000,I2C,2 + ACK
3.230764416666667,I2C,138 + ACK
3.234359250000000,I2C,3 + ACK
3.237965500000000,I2C,216 + ACK
3.602106833333333,I2C,Setup Write to [0] + ACK
3.605707500000000,I2C,5 + ACK
3.609308833333333,I2C,4 + ACK
3.612914583333333,I2C,132 + ACK
3.616509666666667,I2C,136 + ACK
3.620115333333333,I2C,19 + ACK
3.623710666666667,I2C,216 + ACK
4.001260083333333,I2C,Setup Read to [211] + ACK
4.004866583333333,I2C,7 + ACK
4.008462416666666,I2C,5 + ACK
4.012061750000000,I2C,58 + ACK
4.015662583333333,I2C,0 + ACK
4.019263166666667,I2C,18 + ACK
4.022869750000000,I2C,66 + ACK
4.026465666666667,I2C,0 + ACK
4.030071250000000,I2C,102 + NAK
4.403214916666666,I2C,Setup Write to [0] + ACK
4.406815833333333,I2C,9 + ACK
4.410415916666667,I2C,6 + ACK
4.414022583333334,I2C,215 + ACK
4.417618833333333,I2C,20 + ACK
4.421218250000000,I2C,0 + ACK
4.424818916666666,I2C,159 + ACK
4.428419583333334,I2C,2 + ACK
4.432025916666666,I2C,138 + ACK
4.435621916666666,I2C,3 + ACK
4.439227250000000,I2C,216 + ACK
4.801495250000000,I2C,Setup Write to [0] + ACK
4.805139166666667,I2C,5 + ACK
4.808755166666667,I2C,4 + ACK
4.812371083333334,I2C,132 + ACK
4.815971333333334,I2C,136 + ACK
4.819572416666666,I2C,19 + ACK
4.823178500000000,I2C,216 + ACK
5.202443916666667,I2C,Setup Read to [211] + ACK
5.206050000000000,I2C,7 + ACK
5.209644916666667,I2C,5 + ACK
5.213245916666667,I2C,58 + ACK
5.216847250000000,I2C,0 + ACK
5.220447000000000,I2C,18 + ACK
5.224053583333333,I2C,66 + ACK
5.227648583333333,I2C,0 + ACK
5.231248833333333,I2C,102 + NAK
5.602677416666666,I2C,Setup Write to [0] + ACK
5.606283416666667,I2C,9 + ACK
5.609878750000000,I2C,6 + ACK
5.613479083333333,I2C,215 + ACK
5.617080666666666,I2C,20 + ACK
5.620680750000000,I2C,0 + ACK
5.624286750000000,I2C,159 + ACK
5.627881666666666,I2C,2 + ACK
5.631482583333334,I2C,138 + ACK
5.635084000000000,I2C,3 + ACK
5.638683750000000,I2C,216 + ACK
6.003031416666667,I2C,Setup Write to [0] + ACK
6.006632083333334,I2C,5 + ACK
6.010233416666667,I2C,4 + ACK
6.013838833333334,I2C,132 + ACK
6.017434083333334,I2C,136 + ACK
6.021039916666667,I2C,19 + ACK
6.024635166666667,I2C,216 + ACK
6.402785166666667,I2C,Setup Read to [211] + ACK
6.406386833333333,I2C,7 + ACK
6.409986500000000,I2C,5 + ACK
6.413587166666667,I2C,58 + ACK
6.417193500000000,I2C,0 + ACK
6.420788583333334,I2C,18 + ACK
6.424390500000000,I2C,66 + ACK
6.427989833333333,I2C,0 + ACK
6.431588416666667,I2C,102 + NAK
6.802939250000000,I2C,Setup Write to [0] + ACK
6.806540833333333,I2C,9 + ACK
6.810140583333333,I2C,6 + ACK
6.813741250000000,I2C,215 + ACK
6.817347666666667,I2C,20 + ACK
6.820942666666666,I2C,0 + ACK
6.824544583333333,I2C,159 + ACK
6.828143916666667,I2C,2 + ACK
6.831742500000000,I2C,138 + ACK
6.835351250000000,I2C,3 + ACK
6.838945916666667,I2C,216 + ACK
7.203294416666667,I2C,Setup Write to [0] + ACK
7.206900500000000,I2C,5 + ACK
7.210495416666666,I2C,4 + ACK
7.214096416666667,I2C,132 + ACK
7.217697750000000,I2C,136 + ACK
7.221297500000000,I2C,19 + ACK
7.224904083333334,I2C,216 + ACK
7.602647666666667,I2C,Setup Read to [211] + ACK
7.606253750000000,I2C,7 + ACK
7.609849916666667,I2C,5 + ACK
7.613449750000000,I2C,58 + ACK
7.617050000000000,I2C,0 + ACK
7.620651083333334,I2C,18 + ACK
7.624257166666666,I2C,66 + ACK
7.627853000000000,I2C,0 + ACK
7.631458750000000,I2C,102 + NAK
8.003534750000000,I2C,Setup Write to [0] + ACK
8.007169666666666,I2C,9 + ACK
8.010793416666667,I2C,6 + ACK
8.014403666666666,I2C,215 + ACK
8.018005250000000,I2C,26 + ACK
8.021205166666666,I2C,0 + ACK
8.024805916666667,I2C,79 + NAK
8.028411999999999,I2C,1 + ACK
8.031954750000001,I2C,69 + ACK
8.035607583333332,I2C,1 + NAK
8.039208583333334,I2C,108 + ACK
8.404475916666666,I2C,Setup Write to [0] + ACK
8.408083083333333,I2C,5 + ACK
8.411677250000000,I2C,4 + ACK
8.415287916666667,I2C,132 + ACK
8.418878583333333,I2C,136 + ACK
8.422479166666667,I2C,19 + ACK
8.426086416666667,I2C,216 + ACK
8.803435500000001,I2C,Setup Read to [211] + ACK
8.807030416666667,I2C,7 + ACK
8.810637083333333,I2C,5 + ACK
8.814232583333334,I2C,58 + ACK
8.817832416666667,I2C,0 + ACK
8.821433000000001,I2C,18 + ACK
8.825033749999999,I2C,66 + ACK
8.828640000000000,I2C,0 + ACK
8.832182916666667,I2C,102 + NAK
9.203784916666667,I2C,Setup Write to [0] + ACK
9.207386083333333,I2C,9 + ACK
9.210986249999999,I2C,6 + ACK
9.214586499999999,I2C,215 + ACK
9.218192999999999,I2C,20 + ACK
9.221788249999999,I2C,0 + ACK
9.225389416666667,I2C,159 + ACK
9.228989583333334,I2C,2 + ACK
9.232587000000001,I2C,138 + ACK
9.236196083333333,I2C,3 + ACK
9.239790500000000,I2C,216 + ACK
9.604338250000000,I2C,Setup Write to [0] + ACK
9.607939000000000,I2C,5 + ACK
9.611540500000000,I2C,4 + ACK
9.615145999999999,I2C,132 + ACK
9.618741000000000,I2C,136 + ACK
9.622346666666667,I2C,19 + ACK
9.625942083333333,I2C,216 + ACK
10.003492083333333,I2C,Setup Read to [211] + ACK
10.007098250000000,I2C,7 + ACK
10.010694416666666,I2C,5 + ACK
10.014294250000001,I2C,58 + ACK
10.017894500000001,I2C,0 + ACK
10.021495583333333,I2C,18 + ACK
10.025101666666666,I2C,66 + ACK
10.028697500000000,I2C,0 + ACK
10.032303333333333,I2C,102 + NAK
10.404852750000000,I2C,Setup Write to [0] + ACK
10.408446916666668,I2C,9 + ACK
10.412053250000000,I2C,6 + ACK
10.415648250000000,I2C,215 + ACK
10.419248833333333,I2C,20 + ACK
10.422796999999999,I2C,0 + ACK
10.426450166666667,I2C,159 + ACK
10.430056666666667,I2C,2 + ACK
10.433651583333333,I2C,138 + ACK
10.437252166666667,I2C,3 + ACK
10.440854083333333,I2C,216 + ACK
10.805006750000000,I2C,Setup Write to [0] + ACK
10.808600999999999,I2C,5 + ACK
10.812207333333333,I2C,4 + ACK
10.815802333333334,I2C,132 + ACK
10.819402916666666,I2C,136 + ACK
10.822951083333333,I2C,19 + ACK
10.826604250000001,I2C,216 + ACK
11.205355083333334,I2C,Setup Read to [211] + ACK
11.208959583333334,I2C,7 + ACK
11.212556833333334,I2C,5 + ACK
11.216157666666666,I2C,58 + ACK
11.219763083333333,I2C,0 + ACK
11.223357666666667,I2C,18 + ACK
11.226958666666667,I2C,66 + ACK
11.230559083333333,I2C,0 + ACK
11.234160666666666,I2C,102 + NAK
11.604708333333333,I2C,Setup Write to [0] + ACK
11.608309916666666,I2C,9 + ACK
11.611909666666667,I2C,6 + ACK
11.615510750000000,I2C,215 + ACK
11.619117083333334,I2C,20 + ACK
11.622711750000001,I2C,0 + ACK
11.626337250000001,I2C,159 + ACK
11.629965916666666,I2C,2 + ACK
11.633591583333333,I2C,138 + ACK
11.637200750000000,I2C,3 + ACK
11.640795333333333,I2C,216 + ACK
12.005342833333334,I2C,Setup Write to [0] + ACK
12.008943583333334,I2C,5 + ACK
12.012545083333332,I2C,4 + ACK
12.016150500000000,I2C,132 + ACK
12.019745583333334,I2C,136 + ACK
12.023351249999999,I2C,19 + ACK
12.026946583333334,I2C,216 + ACK
12.405896666666667,I2C,Setup Read to [211] + ACK
12.409497333333332,I2C,7 + ACK
12.413098083333333,I2C,5 + ACK
12.416699583333333,I2C,58 + ACK
12.420306083333333,I2C,0 + ACK
12.423909916666666,I2C,18 + ACK
12.427501083333333,I2C,66 + ACK
12.431101666666667,I2C,0 + ACK
12.434703166666667,I2C,102 + NAK
12.805650416666667,I2C,Setup Write to [0] + ACK
12.809250666666667,I2C,9 + ACK
12.812852333333334,I2C,6 + ACK
12.816458083333334,I2C,215 + ACK
12.820052666666667,I2C,20 + ACK
12.823658750000000,I2C,0 + ACK
12.827254333333334,I2C,159 + ACK
12.830855833333333,I2C,2 + ACK
12.834461250000000,I2C,138 + ACK
12.838056416666667,I2C,3 + ACK
12.841662749999999,I2C,216 + ACK
13.205805083333333,I2C,Setup Write to [0] + ACK
13.209405750000000,I2C,5 + ACK
13.213006999999999,I2C,4 + ACK
13.216612500000000,I2C,132 + ACK
13.220207750000000,I2C,136 + ACK
13.223823500000000,I2C,19 + ACK
13.227408750000000,I2C,216 + ACK
13.606359333333334,I2C,Setup Read to [211] + ACK
13.609959750000000,I2C,7 + ACK
13.613560416666667,I2C,5 + ACK
13.617161833333334,I2C,58 + ACK
13.620767416666666,I2C,0 + ACK
13.624362166666666,I2C,18 + ACK
13.627963333333334,I2C,66 + ACK
13.631563916666666,I2C,0 + ACK
13.635164583333333,I2C,102 + NAK
14.006319916666667,I2C,Setup Write to [0] + ACK
14.009913666666666,I2C,9 + ACK
14.013520333333334,I2C,6 + ACK
14.017115416666666,I2C,215 + ACK
14.020715750000001,I2C,20 + ACK
14.024264000000001,I2C,0 + ACK
14.027917083333334,I2C,159 + ACK
14.031523750000000,I2C,2 + ACK
14.035118416666666,I2C,138 + ACK
14.038719000000000,I2C,3 + ACK
14.042320833333333,I2C,216 + ACK
14.406667833333334,I2C,Setup Write to [0] + ACK
14.410268583333334,I2C,5 + ACK
14.413869583333334,I2C,4 + ACK
14.417470666666667,I2C,132 + ACK
14.421076583333333,I2C,136 + ACK
14.424671083333333,I2C,19 + ACK
14.428271916666667,I2C,216 + ACK
14.806821250000000,I2C,Setup Read to [211] + ACK
14.810421916666666,I2C,7 + ACK
14.814022666666666,I2C,5 + ACK
14.817624500000001,I2C,58 + ACK
14.821229583333333,I2C,0 + ACK
14.824824416666667,I2C,18 + ACK
14.828425500000000,I2C,66 + ACK
14.832025916666666,I2C,0 + ACK
14.835627750000000,I2C,102 + NAK
15.207375750000001,I2C,Setup Write to [0] + ACK
15.210976750000000,I2C,9 + ACK
15.214576833333334,I2C,6 + ACK
15.218183583333333,I2C,215 + ACK
15.221779833333333,I2C,20 + ACK
15.225378750000001,I2C,0 + ACK
15.228979416666666,I2C,159 + ACK
15.232580083333334,I2C,2 + ACK
15.236186416666667,I2C,138 + ACK
15.239782416666667,I2C,3 + ACK
15.243388083333333,I2C,216 + ACK
15.606730416666666,I2C,Setup Write to [0] + ACK
15.610331083333334,I2C,5 + ACK
15.613932250000000,I2C,4 + ACK
15.617537333333333,I2C,132 + ACK
15.621132250000000,I2C,136 + ACK
15.624738083333334,I2C,19 + ACK
15.628333333333334,I2C,216 + ACK
16.005883416666666,I2C,Setup Read to [211] + ACK
16.009489583333334,I2C,7 + ACK
16.013085749999998,I2C,5 + ACK
16.016685583333334,I2C,57 + ACK
16.020285916666666,I2C,0 + ACK
16.023886916666665,I2C,18 + ACK
16.027512500000000,I2C,66 + ACK
16.031136916666668,I2C,0 + ACK
16.034771500000002,I2C,103 + NAK
16.408123750000001,I2C,Setup Write to [0] + ACK
16.411728416666666,I2C,9 + ACK
16.415267499999999,I2C,6 + ACK
16.418919750000001,I2C,215 + ACK
16.422520750000000,I2C,20 + ACK
16.426127000000001,I2C,0 + ACK
16.429721666666666,I2C,159 + ACK
16.433329250000000,I2C,2 + ACK
16.436923416666666,I2C,138 + ACK
16.440523666666667,I2C,3 + ACK
16.444124750000000,I2C,216 + ACK
16.806676583333335,I2C,Setup Write to [0] + ACK
16.810271499999999,I2C,5 + ACK
16.813877833333333,I2C,4 + ACK
16.817474666666666,I2C,132 + ACK
16.821074166666666,I2C,136 + ACK
16.824675083333332,I2C,19 + ACK
16.828275833333333,I2C,216 + ACK
17.207632333333333,I2C,Setup Read to [211] + ACK
17.211226499999999,I2C,7 + ACK
17.214832749999999,I2C,5 + ACK
17.218427833333333,I2C,57 + ACK
17.222028416666667,I2C,0 + ACK
17.225576499999999,I2C,18 + ACK
17.229229749999998,I2C,66 + ACK
17.232836166666665,I2C,0 + ACK
17.236430833333333,I2C,103 + NAK
17.608180000000001,I2C,Setup Write to [0] + ACK
17.611797166666666,I2C,9 + ACK
17.615381333333332,I2C,6 + ACK
17.618981999999999,I2C,215 + ACK
17.622582666666666,I2C,20 + ACK
17.626183166666667,I2C,0 + ACK
17.629790499999999,I2C,159 + ACK
17.633384666666668,I2C,2 + ACK
17.636985333333332,I2C,138 + ACK
17.640585999999999,I2C,3 + ACK
17.644186916666666,I2C,216 + ACK
18.008134333333334,I2C,Setup Write to [0] + ACK
18.011734666666666,I2C,5 + ACK
18.015335333333333,I2C,4 + ACK
18.018946833333334,I2C,132 + ACK
18.022542416666667,I2C,136 + ACK
18.026137166666668,I2C,19 + ACK
18.029738333333334,I2C,216 + ACK
18.407294250000000,I2C,Setup Read to [211] + ACK
18.410889166666667,I2C,7 + ACK
18.414495833333334,I2C,5 + ACK
18.418091499999999,I2C,57 + ACK
18.421691166666665,I2C,0 + ACK
18.425292249999998,I2C,18 + ACK
18.428892833333332,I2C,66 + ACK
18.432499583333332,I2C,0 + ACK
18.436041083333333,I2C,103 + NAK
18.807448000000001,I2C,Setup Write to [0] + ACK
18.811042583333332,I2C,9 + ACK
18.814649333333332,I2C,6 + ACK
18.818245083333334,I2C,215 + ACK
18.821844583333334,I2C,20 + ACK
18.825445500000001,I2C,0 + ACK
18.829046333333334,I2C,159 + ACK
18.832652333333332,I2C,2 + ACK
18.836195166666666,I2C,138 + ACK
18.839848000000000,I2C,3 + ACK
18.843449000000000,I2C,216 + ACK
19.208196416666667,I2C,Setup Write to [0] + ACK
19.211797083333334,I2C,5 + ACK
19.215398333333333,I2C,4 + ACK
19.219003833333332,I2C,132 + ACK
19.222599083333332,I2C,136 + ACK
19.226204833333334,I2C,19 + ACK
19.229800083333334,I2C,216 + ACK
19.608230583333334,I2C,Setup Read to [211] + ACK
19.611836666666665,I2C,7 + ACK
19.615431583333333,I2C,5 + ACK
19.619032250000000,I2C,58 + ACK
19.622633749999999,I2C,0 + ACK
19.626243583333334,I2C,18 + ACK
19.629840000000002,I2C,66 + ACK
19.633434916666666,I2C,0 + ACK
19.637035416666667,I2C,102 + NAK
20.009384749999999,I2C,Setup Write to [0] + ACK
20.012995499999999,I2C,9 + ACK
20.016585500000001,I2C,6 + ACK
20.020192166666668,I2C,215 + ACK
20.023788416666665,I2C,20 + ACK
20.027387749999999,I2C,0 + ACK
20.030988416666666,I2C,159 + ACK
20.034589083333334,I2C,2 + ACK
20.038195500000000,I2C,138 + ACK
20.041791416666666,I2C,3 + ACK
20.045396833333335,I2C,216 + ACK
20.409138833333333,I2C,Setup Write to [0] + ACK
20.412739250000001,I2C,5 + ACK
20.416339916666665,I2C,4 + ACK
20.419941333333334,I2C,132 + ACK
20.423546916666666,I2C,136 + ACK
20.427141666666667,I2C,19 + ACK
20.430742833333333,I2C,216 + ACK
20.807892500000001,I2C,Setup Read to [211] + ACK
20.811498666666665,I2C,7 + ACK
20.815094833333333,I2C,5 + ACK
20.818694666666666,I2C,58 + ACK
20.822294916666667,I2C,0 + ACK
20.825896000000000,I2C,18 + ACK
20.829502083333335,I2C,66 + ACK
20.833097916666667,I2C,0 + ACK
20.836704000000001,I2C,102 + NAK
21.209446583333332,I2C,Setup Write to [0] + ACK
21.213047249999999,I2C,9 + ACK
21.216648083333332,I2C,6 + ACK
21.220250249999999,I2C,215 + ACK
21.223856083333335,I2C,20 + ACK
21.227450583333333,I2C,0 + ACK
21.231051416666666,I2C,159 + ACK
21.234652416666666,I2C,2 + ACK
21.238253583333332,I2C,138 + ACK
21.241859416666667,I2C,3 + ACK
21.245454416666668,I2C,216 + ACK
21.609880333333333,I2C,Setup Write to [0] + ACK
21.613497666666667,I2C,5 + ACK
21.617081750000001,I2C,4 + ACK
21.620682416666668,I2C,132 + ACK
21.624283083333335,I2C,136 + ACK
21.627883666666666,I2C,19 + ACK
21.631490916666667,I2C,216 + ACK
22.009034666666668,I2C,Setup Read to [211] + ACK
22.012636333333333,I2C,7 + ACK
22.016235999999999,I2C,5 + ACK
22.019836666666667,I2C,58 + ACK
22.023443000000000,I2C,0 + ACK
22.027038083333334,I2C,18 + ACK
22.030639916666665,I2C,66 + ACK
22.034239333333332,I2C,0 + ACK
22.037837916666668,I2C,102 + NAK
22.409909249999998,I2C,Setup Write to [0] + ACK
22.413509666666666,I2C,9 + ACK
22.417110333333333,I2C,6 + ACK
22.420711749999999,I2C,215 + ACK
22.424317333333335,I2C,20 + ACK
22.427912083333332,I2C,0 + ACK
22.431513249999998,I2C,159 + ACK
22.435113833333332,I2C,2 + ACK
22.438715083333335,I2C,138 + ACK
22.442320916666667,I2C,3 + ACK
22.445915833333334,I2C,216 + ACK
22.808662916666666,I2C,Setup Write to [0] + ACK
22.812269083333334,I2C,5 + ACK
22.815865250000002,I2C,4 + ACK
22.819465083333334,I2C,132 + ACK
22.823065333333332,I2C,136 + ACK
22.826666416666665,I2C,19 + ACK
22.830272500000000,I2C,216 + ACK
23.105597750000001,I2C,Setup Read to [3] + ACK
23.109198416666668,I2C,7 + ACK
23.112804833333332,I2C,5 + ACK
23.116400083333332,I2C,77 + ACK
23.120001250000001,I2C,1 + ACK
23.123601083333334,I2C,255 + ACK
23.127201666666668,I2C,0 + ACK
23.130808166666668,I2C,0 + ACK
23.134412999999999,I2C,167 + NAK
23.145205083333334,I2C,Setup Read to [5] + ACK
23.148811250000001,I2C,7 + ACK
23.152406416666668,I2C,5 + ACK
23.156013583333333,I2C,77 + ACK
23.159608083333332,I2C,1 + ACK
23.163208416666667,I2C,255 + ACK
23.166809083333334,I2C,0 + ACK
23.170409750000001,I2C,0 + ACK
23.174016916666666,I2C,167 + NAK
23.184412250000001,I2C,Setup Read to [7] + ACK
23.187960666666665,I2C,7 + ACK
23.191613583333332,I2C,5 + ACK
23.195220083333332,I2C,77 + ACK
23.198815833333335,I2C,1 + ACK
23.202416333333332,I2C,255 + ACK
23.206017916666667,I2C,0 + ACK
23.209617916666666,I2C,0 + ACK
23.213224000000000,I2C,167 + NAK
23.223026749999999,I2C,Setup Read to [9] + ACK
23.226621166666668,I2C,7 + ACK
23.230221499999999,I2C,5 + ACK
23.233822249999999,I2C,78 + ACK
23.237423166666666,I2C,1 + ACK
23.241030083333332,I2C,66 + ACK
23.244624500000000,I2C,0 + ACK
23.248224666666665,I2C,0 + ACK
23.251825583333332,I2C,99 + NAK
23.263034166666667,I2C,Setup Read to [11] + ACK
23.266628583333333,I2C,7 + ACK
23.270228833333334,I2C,5 + ACK
23.273829666666668,I2C,77 + ACK
23.277430583333334,I2C,1 + ACK
23.281047500000000,I2C,255 + ACK
23.284631916666665,I2C,0 + ACK
23.288232083333334,I2C,0 + ACK
23.291833000000000,I2C,167 + NAK
23.309236083333332,I2C,Setup Read to [13] + ACK
23.312842499999999,I2C,7 + ACK
23.316437749999999,I2C,5 + ACK
23.320038250000000,I2C,77 + ACK
23.323638166666665,I2C,1 + ACK
23.327238749999999,I2C,255 + ACK
23.330845166666666,I2C,0 + ACK
23.334450083333333,I2C,0 + ACK
23.337989833333335,I2C,167 + NAK
23.362444750000002,I2C,Setup Read to [15] + ACK
23.366047250000001,I2C,7 + ACK
23.369647499999999,I2C,5 + ACK
23.373253583333334,I2C,77 + ACK
23.376848500000001,I2C,1 + ACK
23.380446583333335,I2C,255 + ACK
23.384050583333334,I2C,0 + ACK
23.387650416666666,I2C,0 + ACK
23.391256916666666,I2C,167 + NAK
23.408854250000001,I2C,Setup Read to [17] + ACK
23.412460833333334,I2C,7 + ACK
23.416056583333333,I2C,5 + ACK
23.419656666666668,I2C,78 + ACK
23.423256916666666,I2C,1 + ACK
23.426857999999999,I2C,255 + ACK
23.430464166666667,I2C,0 + ACK
23.434059999999999,I2C,0 + ACK
23.437665750000001,I2C,166 + NAK
23.463344333333332,I2C,Setup Read to [19] + ACK
23.466945416666668,I2C,7 + ACK
23.470551583333332,I2C,5 + ACK
23.474147416666668,I2C,76 + ACK
23.477753166666666,I2C,1 + ACK
23.481357666666668,I2C,255 + ACK
23.484948333333332,I2C,0 + ACK
23.488555083333335,I2C,0 + ACK
23.492150750000000,I2C,168 + NAK
23.509353333333333,I2C,Setup Read to [21] + ACK
23.512959333333335,I2C,7 + ACK
23.516554666666668,I2C,5 + ACK
23.520156083333333,I2C,77 + ACK
23.523755500000000,I2C,1 + ACK
23.527356500000000,I2C,255 + ACK
23.530963083333333,I2C,0 + ACK
23.534557750000001,I2C,0 + ACK
23.538106500000001,I2C,167 + NAK
23.562362499999999,I2C,Setup Read to [23] + ACK
23.565968333333334,I2C,7 + ACK
23.569563166666665,I2C,5 + ACK
23.573164750000000,I2C,77 + ACK
23.576764499999999,I2C,1 + ACK
23.580365333333333,I2C,255 + ACK
23.583971666666667,I2C,0 + ACK
23.587566666666667,I2C,0 + ACK
23.591168083333333,I2C,167 + NAK
23.609770333333334,I2C,Setup Read to [25] + ACK
23.613376833333334,I2C,7 + ACK
23.616971750000001,I2C,5 + ACK
23.620572666666668,I2C,77 + ACK
23.624174166666666,I2C,1 + ACK
23.627783166666667,I2C,255 + ACK
23.631380416666666,I2C,0 + ACK
23.634975416666666,I2C,0 + ACK
23.638578666666668,I2C,167 + NAK
23.662782916666668,I2C,Setup Read to [27] + ACK
23.666389416666668,I2C,7 + ACK
23.669984416666665,I2C,2 + NAK
23.673384916666667,I2C,38 + NAK
23.676991416666667,I2C,0 + NAK
23.680586250000001,I2C,127 + NAK
23.684188083333332,I2C,0 + ACK
23.687788000000001,I2C,0 + ACK
23.691388333333332,I2C,83 + NAK
23.709391666666665,I2C,Setup Read to [29] + ACK
23.712997916666666,I2C,7 + ACK
23.716592916666666,I2C,5 + ACK
23.720194916666667,I2C,38 + NAK
23.723599916666668,I2C,0 + NAK
23.727196083333332,I2C,127 + NAK
23.730795666666666,I2C,0 + ACK
23.734396250000000,I2C,0 + ACK
23.737996916666667,I2C,83 + NAK
23.762806833333332,I2C,Setup Read to [31] + ACK
23.766401416666668,I2C,7 + ACK
23.770002083333335,I2C,5 + ACK
23.773602833333332,I2C,77 + ACK
23.777204416666667,I2C,1 + ACK
23.780810083333332,I2C,255 + ACK
23.784404916666666,I2C,0 + ACK
23.788021166666667,I2C,0 + ACK
23.791606250000001,I2C,167 + NAK
23.809809500000000,I2C,Setup Read to [33] + ACK
23.813415916666667,I2C,7 + ACK
23.817011250000000,I2C,5 + ACK
23.820611583333335,I2C,77 + ACK
23.824213416666666,I2C,1 + ACK
23.827812916666666,I2C,255 + ACK
23.831419166666667,I2C,0 + ACK
23.835014166666667,I2C,0 + ACK
23.838614750000001,I2C,167 + NAK
23.862220416666666,I2C,Setup Read to [211] + ACK
23.865820249999999,I2C,7 + ACK
23.869430416666667,I2C,5 + ACK
23.873065333333333,I2C,58 + ACK
23.876689166666665,I2C,0 + ACK
23.880303416666667,I2C,18 + ACK
23.883903583333332,I2C,66 + ACK
23.887503833333334,I2C,0 + ACK
23.891110500000000,I2C,102 + NAK
23.910908333333332,I2C,Setup Write to [0] + ACK
23.914519166666668,I2C,9 + ACK
23.918109500000000,I2C,6 + ACK
23.921710500000000,I2C,209 + ACK
23.925317750000001,I2C,20 + ACK
23.928913750000000,I2C,134 + ACK
23.932512500000001,I2C,159 + ACK
23.936112999999999,I2C,2 + ACK
23.939713666666666,I2C,138 + ACK
23.943321166666667,I2C,3 + ACK
23.946915000000001,I2C,88 + ACK
23.962923499999999,I2C,Setup Write to [0] + ACK
23.966518499999999,I2C,5 + ACK
23.970119166666667,I2C,4 + ACK
23.973719833333334,I2C,132 + ACK
23.977321499999999,I2C,136 + ACK
23.980926583333332,I2C,19 + ACK
23.984521500000000,I2C,216 + ACK
24.010332583333334,I2C,Setup Read to [3] + ACK
24.013926833333333,I2C,7 + ACK
24.017533250000000,I2C,5 + ACK
24.021128000000001,I2C,78 + ACK
24.024728666666668,I2C,128 + NAK
24.028144916666665,I2C,127 + NAK
24.031730249999999,I2C,0 + ACK
24.035331500000002,I2C,0 + ACK
24.038936666666668,I2C,83 + ACK
24.072537833333332,I2C,Setup Read to [5] + ACK
24.076138499999999,I2C,7 + ACK
24.079744500000000,I2C,5 + ACK
24.083340666666668,I2C,78 + ACK
24.086945833333335,I2C,1 + ACK
24.090541166666668,I2C,255 + ACK
24.094141833333332,I2C,0 + ACK
24.097742083333333,I2C,0 + ACK
24.101344666666666,I2C,166 + NAK
24.109745000000000,I2C,Setup Read to [7] + ACK
24.113347000000001,I2C,7 + ACK
24.116946333333335,I2C,5 + ACK
24.120553000000001,I2C,77 + ACK
24.124147666666666,I2C,1 + ACK
24.127755250000000,I2C,255 + ACK
24.131350250000001,I2C,0 + ACK
24.134959916666666,I2C,0 + ACK
24.138553916666666,I2C,167 + NAK
24.162755250000000,I2C,Setup Read to [9] + ACK
24.166356499999999,I2C,7 + ACK
24.169956166666665,I2C,5 + ACK
24.173562916666668,I2C,78 + ACK
24.177158833333333,I2C,1 + ACK
24.180758250000000,I2C,66 + ACK
24.184359749999999,I2C,0 + ACK
24.187959916666667,I2C,0 + ACK
24.191566166666668,I2C,99 + NAK
24.210763416666666,I2C,Setup Read to [11] + ACK
24.214370416666668,I2C,7 + ACK
24.217964333333335,I2C,5 + ACK
24.221575416666667,I2C,77 + ACK
24.225166083333335,I2C,1 + ACK
24.228766250000000,I2C,255 + ACK
24.232374583333332,I2C,0 + ACK
24.235968083333333,I2C,0 + ACK
24.239568750000000,I2C,167 + NAK
24.262772916666666,I2C,Setup Read to [13] + ACK
24.266374500000001,I2C,7 + ACK
24.269979666666668,I2C,5 + ACK
24.273574916666668,I2C,77 + ACK
24.277181416666668,I2C,1 + ACK
24.280776416666665,I2C,255 + ACK
24.284377666666668,I2C,0 + ACK
24.287986416666666,I2C,0 + ACK
24.291578416666667,I2C,167 + NAK
24.311382666666667,I2C,Setup Read to [15] + ACK
24.314982416666666,I2C,7 + ACK
24.318581500000001,I2C,5 + ACK
24.322189416666667,I2C,77 + ACK
24.325784750000000,I2C,1 + ACK
24.329386166666666,I2C,255 + ACK
24.332985749999999,I2C,0 + ACK
24.336586333333333,I2C,0 + ACK
24.340192666666667,I2C,167 + NAK
24.362591166666668,I2C,Setup Read to [17] + ACK
24.366197583333335,I2C,7 + ACK
24.369804083333332,I2C,5 + ACK
24.373434416666665,I2C,78 + ACK
24.377063000000000,I2C,1 + ACK
24.380674583333334,I2C,255 + ACK
24.384280833333332,I2C,0 + ACK
24.387875833333332,I2C,0 + ACK
24.391477416666667,I2C,166 + NAK
24.410680166666666,I2C,Setup Read to [19] + ACK
24.414280666666667,I2C,7 + ACK
24.417881333333334,I2C,5 + ACK
24.421482500000000,I2C,76 + ACK
24.425087666666666,I2C,1 + ACK
24.428692583333333,I2C,255 + ACK
24.432283666666667,I2C,0 + ACK
24.435884000000001,I2C,0 + ACK
24.439485666666666,I2C,168 + NAK
24.463089416666666,I2C,Setup Read to [21] + ACK
24.466695500000000,I2C,7 + ACK
24.470290500000001,I2C,5 + ACK
24.473891416666667,I2C,77 + ACK
24.477492666666667,I2C,1 + ACK
24.481092333333333,I2C,255 + ACK
24.484699083333332,I2C,0 + ACK
24.488303416666668,I2C,0 + ACK
24.491894416666668,I2C,167 + NAK
24.509898083333333,I2C,Setup Read to [23] + ACK
24.513499583333335,I2C,7 + ACK
24.517099416666667,I2C,5 + ACK
24.520707083333335,I2C,77 + ACK
24.524301749999999,I2C,1 + ACK
24.527908249999999,I2C,255 + ACK
24.531504083333335,I2C,0 + ACK
24.535103916666667,I2C,0 + ACK
24.538708333333332,I2C,167 + NAK
24.563309416666666,I2C,Setup Read to [25] + ACK
24.566910083333333,I2C,7 + ACK
24.570516916666666,I2C,5 + ACK
24.574111083333332,I2C,77 + ACK
24.577717333333332,I2C,1 + ACK
24.581312666666665,I2C,255 + ACK
24.584913416666666,I2C,0 + ACK
24.588459749999998,I2C,0 + ACK
24.592114750000000,I2C,167 + NAK
24.609723583333334,I2C,Setup Read to [27] + ACK
24.613318666666668,I2C,7 + ACK
24.616924999999998,I2C,5 + ACK
24.620520500000001,I2C,77 + ACK
24.624120333333334,I2C,1 + ACK
24.627720916666668,I2C,255 + ACK
24.631321916666668,I2C,0 + ACK
24.634928333333335,I2C,0 + ACK
24.638469416666666,I2C,167 + NAK
24.663927333333334,I2C,Setup Read to [29] + ACK
24.667534333333332,I2C,7 + ACK
24.671128249999999,I2C,5 + ACK
24.674729249999999,I2C,77 + ACK
24.678329583333333,I2C,1 + ACK
24.681930166666668,I2C,255 + ACK
24.685537750000002,I2C,0 + ACK
24.689131583333332,I2C,0 + ACK
24.692732583333335,I2C,167 + NAK
24.710536500000000,I2C,Setup Read to [31] + ACK
24.714141916666666,I2C,7 + ACK
24.717737166666666,I2C,5 + ACK
24.721337666666667,I2C,77 + ACK
24.724938500000000,I2C,1 + ACK
24.728485666666668,I2C,255 + ACK
24.732145583333335,I2C,0 + ACK
24.735740333333332,I2C,0 + ACK
24.739340750000000,I2C,167 + NAK
24.762546083333334,I2C,Setup Read to [33] + ACK
24.766145916666666,I2C,7 + ACK
24.769752333333333,I2C,5 + ACK
24.773347583333333,I2C,77 + ACK
24.776953833333334,I2C,1 + ACK
24.780549499999999,I2C,255 + ACK
24.784149333333332,I2C,0 + ACK
24.787749833333333,I2C,0 + ACK
24.791350833333333,I2C,167 + NAK
24.809954083333334,I2C,Setup Read to [211] + ACK
24.813555666666666,I2C,7 + ACK
24.817155416666665,I2C,5 + ACK
24.820755999999999,I2C,58 + ACK
24.824365916666668,I2C,0 + ACK
24.827957666666666,I2C,18 + ACK
24.831582999999998,I2C,66 + ACK
24.835220916666668,I2C,0 + ACK
24.838837416666667,I2C,102 + NAK
24.863443499999999,I2C,Setup Write to [0] + ACK
24.867044249999999,I2C,9 + ACK
24.870645833333334,I2C,6 + ACK
24.874250833333335,I2C,211 + ACK
24.877846166666668,I2C,20 + ACK
24.881446583333332,I2C,134 + ACK
24.885047166666666,I2C,159 + ACK
24.888595333333335,I2C,2 + ACK
24.892254166666667,I2C,138 + ACK
24.895849250000001,I2C,3 + ACK
24.899449916666665,I2C,86 + ACK
24.910852250000001,I2C,Setup Write to [0] + ACK
24.914452916666665,I2C,5 + ACK
24.918053416666666,I2C,4 + ACK
24.921670916666667,I2C,132 + ACK
24.925254583333334,I2C,136 + ACK
24.928855500000001,I2C,19 + ACK
24.932455916666665,I2C,216 + ACK
24.962468000000001,I2C,Setup Read to [3] + ACK
24.966062833333332,I2C,7 + ACK
24.969664416666667,I2C,5 + ACK
24.973264499999999,I2C,77 + ACK
24.976865249999999,I2C,1 + ACK
24.980471666666666,I2C,255 + ACK
24.984066500000001,I2C,0 + ACK
24.987673500000000,I2C,0 + ACK
24.991267499999999,I2C,167 + NAK
25.010871583333333,I2C,Setup Read to [5] + ACK
25.014472250000001,I2C,7 + ACK
25.018072916666668,I2C,5 + ACK
25.021674333333333,I2C,78 + ACK
25.025279833333332,I2C,1 + ACK
25.028874416666667,I2C,255 + ACK
25.032475250000001,I2C,0 + ACK
25.036075833333335,I2C,0 + ACK
25.039677416666667,I2C,166 + NAK
25.071482833333334,I2C,Setup Read to [7] + ACK
25.075089083333335,I2C,7 + ACK
25.078630916666668,I2C,5 + ACK
25.082284666666666,I2C,77 + ACK
25.085885500000000,I2C,1 + ACK
25.089485750000001,I2C,255 + ACK
25.093095416666667,I2C,0 + ACK
25.096688250000000,I2C,0 + ACK
25.100287333333334,I2C,167 + NAK
25.109494750000000,I2C,Setup Read to [9] + ACK
25.113089666666667,I2C,7 + ACK
25.116696999999998,I2C,5 + ACK
25.120291000000002,I2C,78 + ACK
25.123891416666666,I2C,1 + ACK
25.127492333333333,I2C,33 + ACK
25.130892666666668,I2C,0 + ACK
25.134493333333332,I2C,0 + ACK
25.138094416666668,I2C,49 + NAK
25.163699666666666,I2C,Setup Read to [11] + ACK
25.167305416666668,I2C,7 + ACK
25.170900083333333,I2C,5 + ACK
25.174500750000000,I2C,77 + ACK
25.178101833333333,I2C,1 + ACK
25.181703333333335,I2C,255 + ACK
25.185308500000001,I2C,0 + ACK
25.188903333333332,I2C,0 + ACK
25.192504499999998,I2C,167 + NAK
25.210307666666665,I2C,Setup Read to [13] + ACK
25.213913833333333,I2C,7 + ACK
25.217508750000000,I2C,5 + ACK
25.221109833333333,I2C,77 + ACK
25.224711333333332,I2C,1 + ACK
25.228310833333332,I2C,255 + ACK
25.231917166666666,I2C,0 + ACK
25.235512166666666,I2C,0 + ACK
25.239112666666667,I2C,167 + NAK
25.262517500000001,I2C,Setup Read to [15] + ACK
25.266123499999999,I2C,7 + ACK
25.269719416666668,I2C,5 + ACK
25.273319333333333,I2C,77 + ACK
25.276920000000000,I2C,1 + ACK
25.280520666666668,I2C,255 + ACK
25.284127083333335,I2C,0 + ACK
25.287722750000000,I2C,0 + ACK
25.291322500000000,I2C,167 + NAK
25.309925833333335,I2C,Setup Read to [17] + ACK
25.313532333333335,I2C,7 + ACK
25.317127500000002,I2C,5 + ACK
25.320729083333333,I2C,78 + ACK
25.324328833333333,I2C,1 + ACK
25.327929583333333,I2C,255 + ACK
25.331535583333334,I2C,0 + ACK
25.335129500000001,I2C,0 + ACK
25.338679083333332,I2C,166 + NAK
25.363935833333333,I2C,Setup Read to [19] + ACK
25.367536833333332,I2C,7 + ACK
25.371137250000000,I2C,5 + ACK
25.374747916666667,I2C,76 + ACK
25.378338583333335,I2C,1 + ACK
25.381949500000001,I2C,255 + ACK
25.385540166666665,I2C,0 + ACK
25.389140500000000,I2C,0 + ACK
25.392747916666668,I2C,168 + NAK
25.410752083333332,I2C,Setup Read to [21] + ACK
25.414346250000001,I2C,7 + ACK
25.417952333333332,I2C,5 + ACK
25.421547583333332,I2C,77 + ACK
25.425148166666666,I2C,1 + ACK
25.428695416666667,I2C,255 + ACK
25.432378333333332,I2C,0 + ACK
25.436013916666667,I2C,0 + ACK
25.439630666666666,I2C,167 + NAK
25.463841750000000,I2C,Setup Read to [23] + ACK
25.467436083333332,I2C,7 + ACK
25.471036750000000,I2C,5 + ACK
25.474637416666667,I2C,77 + ACK
25.478238083333334,I2C,1 + ACK
25.481845249999999,I2C,255 + ACK
25.485439333333332,I2C,0 + ACK
25.489039583333334,I2C,0 + ACK
25.492640500000000,I2C,167 + NAK
25.510449749999999,I2C,Setup Read to [25] + ACK
25.514044750000000,I2C,7 + ACK
25.517651083333334,I2C,5 + ACK
25.521245333333333,I2C,77 + ACK
25.524846666666665,I2C,1 + ACK
25.528456583333334,I2C,255 + ACK
25.532047250000002,I2C,0 + ACK
25.535653666666665,I2C,0 + ACK
25.539248416666666,I2C,167 + NAK
25.562853666666665,I2C,Setup Read to [27] + ACK
25.566453750000001,I2C,7 + ACK
25.570059833333332,I2C,5 + ACK
25.573654999999999,I2C,77 + ACK
25.577261416666666,I2C,1 + ACK
25.580857333333334,I2C,255 + ACK
25.584456666666668,I2C,0 + ACK
25.588057666666668,I2C,0 + ACK
25.591658083333332,I2C,167 + NAK
25.610868583333332,I2C,Setup Read to [29] + ACK
25.614462249999999,I2C,7 + ACK
25.618068916666665,I2C,5 + ACK
25.621664583333335,I2C,77 + ACK
25.625264999999999,I2C,1 + ACK
25.628812416666666,I2C,255 + ACK
25.632466333333333,I2C,0 + ACK
25.636072916666667,I2C,0 + ACK
25.639667416666665,I2C,167 + NAK
25.663878749999999,I2C,Setup Read to [31] + ACK
25.667472833333335,I2C,7 + ACK
25.671073416666665,I2C,5 + ACK
25.674674499999998,I2C,77 + ACK
25.678275166666666,I2C,1 + ACK
25.681892250000001,I2C,255 + ACK
25.685476500000000,I2C,0 + ACK
25.689076916666668,I2C,0 + ACK
25.692677499999999,I2C,167 + NAK
25.710681083333334,I2C,Setup Read to [33] + ACK
25.714281750000001,I2C,7 + ACK
25.717883416666666,I2C,5 + ACK
25.721483083333332,I2C,77 + ACK
25.725089250000000,I2C,1 + ACK
25.728694083333334,I2C,255 + ACK
25.732285166666667,I2C,0 + ACK
25.735886416666666,I2C,0 + ACK
25.739485999999999,I2C,167 + NAK
25.763290500000000,I2C,Setup Read to [211] + ACK
25.766892083333332,I2C,7 + ACK
25.770492083333334,I2C,5 + ACK
25.774098500000001,I2C,58 + ACK
25.777693416666665,I2C,0 + ACK
25.781293833333333,I2C,18 + ACK
25.784895750000000,I2C,66 + ACK
25.788495166666667,I2C,0 + ACK
25.792101583333334,I2C,102 + NAK
25.811299333333334,I2C,Setup Write to [0] + ACK
25.814907083333335,I2C,9 + ACK
25.818500666666665,I2C,6 + ACK
25.822101499999999,I2C,210 + ACK
25.825702166666666,I2C,20 + ACK
25.829302583333334,I2C,134 + ACK
25.832910416666667,I2C,159 + ACK
25.836504000000001,I2C,2 + ACK
25.840105749999999,I2C,138 + ACK
25.843706500000000,I2C,3 + ACK
25.847307166666667,I2C,87 + ACK
25.862910833333334,I2C,Setup Write to [0] + ACK
25.866510666666667,I2C,5 + ACK
25.870111250000001,I2C,4 + ACK
25.873717750000001,I2C,132 + ACK
25.877312666666668,I2C,136 + ACK
25.880913833333334,I2C,19 + ACK
25.884513750000000,I2C,216 + ACK
25.910718583333335,I2C,Setup Read to [3] + ACK
25.914319416666668,I2C,7 + ACK
25.917921083333333,I2C,5 + ACK
25.921520916666665,I2C,77 + ACK
25.925127249999999,I2C,1 + ACK
25.928731833333334,I2C,255 + ACK
25.932322583333335,I2C,0 + ACK
25.935924166666666,I2C,0 + ACK
25.939523666666666,I2C,167 + NAK
25.963126916666667,I2C,Setup Read to [5] + ACK
25.966733416666667,I2C,7 + ACK
25.970328500000001,I2C,5 + ACK
25.973929999999999,I2C,78 + ACK
25.977529833333332,I2C,1 + ACK
25.981130416666666,I2C,255 + ACK
25.984736583333333,I2C,0 + ACK
25.988331750000000,I2C,0 + ACK
25.991732083333332,I2C,83 + ACK
26.009735750000001,I2C,Setup Read to [7] + ACK
26.013341749999999,I2C,7 + ACK
26.016938083333333,I2C,5 + ACK
26.020537833333332,I2C,77 + ACK
26.024138416666666,I2C,1 + ACK
26.027738750000001,I2C,255 + ACK
26.031364416666666,I2C,0 + ACK
26.034989416666665,I2C,0 + ACK
26.038623583333333,I2C,167 + NAK
26.071826916666666,I2C,Setup Read to [9] + ACK
26.075433250000000,I2C,7 + ACK
26.078976166666667,I2C,5 + ACK
26.082628916666668,I2C,78 + ACK
26.086229583333335,I2C,1 + ACK
26.089830666666668,I2C,66 + ACK
26.093436583333332,I2C,0 + ACK
26.097032916666667,I2C,0 + ACK
26.100633083333335,I2C,99 + NAK
26.111635416666665,I2C,Setup Read to [11] + ACK
26.115235666666667,I2C,7 + ACK
26.118836000000002,I2C,5 + ACK
26.122447416666667,I2C,77 + ACK
26.126044250000000,I2C,1 + ACK
26.129643500000000,I2C,255 + ACK
26.133239000000000,I2C,128 + ACK
26.136645333333334,I2C,0 + ACK
26.140240666666667,I2C,83 + NAK
26.163444666666667,I2C,Setup Read to [13] + ACK
26.167046416666668,I2C,7 + ACK
26.170646000000001,I2C,5 + ACK
26.174252666666668,I2C,77 + ACK
26.177847666666668,I2C,1 + ACK
26.181448333333332,I2C,255 + ACK
26.185049583333335,I2C,0 + ACK
26.188649250000001,I2C,0 + ACK
26.192256000000000,I2C,167 + NAK
26.211060249999999,I2C,Setup Read to [15] + ACK
26.214654333333332,I2C,7 + ACK
26.218261750000000,I2C,5 + ACK
26.221855416666667,I2C,77 + ACK
26.225456333333334,I2C,1 + ACK
26.229003500000001,I2C,255 + ACK
26.232657666666668,I2C,0 + ACK
26.236263749999999,I2C,0 + ACK
26.239858916666666,I2C,167 + NAK
26.262863083333333,I2C,Setup Read to [17] + ACK
26.266469749999999,I2C,7 + ACK
26.270065500000001,I2C,5 + ACK
26.273665083333334,I2C,78 + ACK
26.277265666666668,I2C,1 + ACK
26.280866333333332,I2C,255 + ACK
26.284472749999999,I2C,0 + ACK
26.288068833333334,I2C,0 + ACK
26.291668749999999,I2C,166 + NAK
26.311271999999999,I2C,Setup Read to [19] + ACK
26.314872666666666,I2C,7 + ACK
26.318473583333333,I2C,5 + ACK
26.322081499999999,I2C,76 + ACK
26.325675333333333,I2C,1 + ACK
26.329285916666667,I2C,255 + ACK
26.332876916666667,I2C,0 + ACK
26.336477333333335,I2C,0 + ACK
26.340084583333333,I2C,168 + NAK
26.364083749999999,I2C,Setup Read to [21] + ACK
26.367688749999999,I2C,7 + ACK
26.371284083333332,I2C,5 + ACK
26.374884416666667,I2C,77 + ACK
26.378485416666667,I2C,1 + ACK
26.382086916666665,I2C,255 + ACK
26.385692083333332,I2C,0 + ACK
26.389296999999999,I2C,0 + ACK
26.392888083333332,I2C,167 + NAK
26.410490333333332,I2C,Setup Read to [23] + ACK
26.414092166666666,I2C,7 + ACK
26.417691666666666,I2C,5 + ACK
26.421292749999999,I2C,77 + ACK
26.424899083333333,I2C,1 + ACK
26.428493666666668,I2C,255 + ACK
26.432095333333333,I2C,0 + ACK
26.435705416666668,I2C,0 + ACK
26.439293833333334,I2C,167 + NAK
26.463101083333335,I2C,Setup Read to [25] + ACK
26.466700750000001,I2C,7 + ACK
26.470301416666668,I2C,5 + ACK
26.473907833333332,I2C,77 + ACK
26.477502833333332,I2C,1 + ACK
26.481104416666668,I2C,255 + ACK
26.484704333333333,I2C,0 + ACK
26.488305000000000,I2C,0 + ACK
26.491911166666668,I2C,167 + NAK
26.510110416666667,I2C,Setup Read to [27] + ACK
26.513710083333333,I2C,7 + ACK
26.517310750000000,I2C,5 + ACK
26.520911416666667,I2C,77 + ACK
26.524517833333334,I2C,1 + ACK
26.528113749999999,I2C,255 + ACK
26.531713583333332,I2C,0 + ACK
26.535314416666665,I2C,0 + ACK
26.538914750000000,I2C,167 + NAK
26.562925249999999,I2C,Setup Read to [29] + ACK
26.566520000000001,I2C,7 + ACK
26.570121583333332,I2C,5 + ACK
26.573721249999998,I2C,77 + ACK
26.577321916666666,I2C,1 + ACK
26.580928249999999,I2C,255 + ACK
26.584523250000000,I2C,0 + ACK
26.588130583333335,I2C,0 + ACK
26.591724666666668,I2C,167 + NAK
26.611328250000000,I2C,Setup Read to [31] + ACK
26.614929166666666,I2C,7 + ACK
26.618529916666667,I2C,5 + ACK
26.622131083333333,I2C,77 + ACK
26.625736666666668,I2C,1 + ACK
26.629331749999999,I2C,255 + ACK
26.632932250000000,I2C,0 + ACK
26.636533166666666,I2C,0 + ACK
26.640134499999998,I2C,167 + NAK
26.663938000000002,I2C,Setup Read to [33] + ACK
26.667538583333332,I2C,7 + ACK
26.671156166666666,I2C,5 + ACK
26.674790750000000,I2C,77 + ACK
26.678414499999999,I2C,128 + NAK
26.681821583333335,I2C,127 + NAK
26.685427749999999,I2C,0 + ACK
26.689022583333333,I2C,0 + ACK
26.692623333333334,I2C,83 + NAK
26.710626999999999,I2C,Setup Read to [211] + ACK
26.714228416666668,I2C,7 + ACK
26.717828333333333,I2C,5 + ACK
26.721435416666665,I2C,57 + ACK
26.725030250000000,I2C,0 + ACK
26.728636416666667,I2C,18 + ACK
26.732232583333332,I2C,66 + ACK
26.735831916666665,I2C,0 + ACK
26.739436500000000,I2C,103 + NAK
26.764643000000000,I2C,Setup Write to [0] + ACK
26.768239166666667,I2C,9 + ACK
26.771838750000001,I2C,6 + ACK
26.775439250000002,I2C,210 + ACK
26.779039916666665,I2C,20 + ACK
26.782646333333332,I2C,134 + ACK
26.786242583333333,I2C,159 + ACK
26.789841916666667,I2C,2 + ACK
26.793442916666667,I2C,138 + ACK
26.797043666666667,I2C,3 + ACK
26.800649916666668,I2C,87 + ACK
26.810646083333335,I2C,Setup Write to [0] + ACK
26.814247750000000,I2C,5 + ACK
26.817847416666666,I2C,4 + ACK
26.821448166666666,I2C,132 + ACK
26.825054500000000,I2C,136 + ACK
26.828649250000002,I2C,19 + ACK
26.832251083333333,I2C,216 + ACK
26.863052666666668,I2C,Setup Read to [3] + ACK
26.866659500000001,I2C,7 + ACK
26.870255000000000,I2C,5 + ACK
26.873854666666666,I2C,78 + ACK
26.877455749999999,I2C,1 + ACK
26.881056416666667,I2C,255 + ACK
26.884662416666668,I2C,0 + ACK
26.888258333333333,I2C,0 + ACK
26.891858416666668,I2C,166 + NAK
26.910067333333334,I2C,Setup Read to [5] + ACK
26.913662500000001,I2C,7 + ACK
26.917269749999999,I2C,5 + ACK
26.920863416666666,I2C,78 + ACK
26.924464166666667,I2C,1 + ACK
26.928064833333334,I2C,255 + ACK
26.931665666666667,I2C,0 + ACK
26.935272999999999,I2C,0 + ACK
26.938867166666668,I2C,166 + NAK
26.963272916666668,I2C,Setup Read to [7] + ACK
26.966872750000000,I2C,7 + ACK
26.970479416666667,I2C,5 + ACK
26.974073916666665,I2C,77 + ACK
26.977680750000001,I2C,1 + ACK
26.981276416666667,I2C,255 + ACK
26.984875916666667,I2C,0 + ACK
26.988476916666666,I2C,0 + ACK
26.992077666666667,I2C,167 + NAK
27.011680999999999,I2C,Setup Read to [9] + ACK
27.015288250000001,I2C,7 + ACK
27.018882666666666,I2C,5 + ACK
27.022482916666668,I2C,78 + ACK
27.026083583333332,I2C,1 + ACK
27.029684583333335,I2C,66 + ACK
27.033291583333334,I2C,0 + ACK
27.036885666666667,I2C,0 + ACK
27.040486666666666,I2C,99 + NAK
27.070898000000000,I2C,Setup Read to [11] + ACK
27.074492500000002,I2C,7 + ACK
27.078098666666666,I2C,5 + ACK
27.081693999999999,I2C,77 + ACK
27.085295416666668,I2C,1 + ACK
27.088895333333333,I2C,255 + ACK
27.092496000000001,I2C,0 + ACK
27.096102333333334,I2C,0 + ACK
27.099697083333332,I2C,83 + NAK
27.111705250000000,I2C,Setup Read to [13] + ACK
27.115300999999999,I2C,7 + ACK
27.118906583333334,I2C,5 + ACK
27.122511500000002,I2C,77 + ACK
27.126102166666666,I2C,1 + ACK
27.129708500000000,I2C,255 + ACK
27.133304333333335,I2C,0 + ACK
27.136912500000001,I2C,0 + ACK
27.140504833333335,I2C,167 + NAK
27.163195500000000,I2C,Setup Read to [15] + ACK
27.166790750000001,I2C,7 + ACK
27.170391916666667,I2C,5 + ACK
27.173992083333335,I2C,77 + ACK
27.177592749999999,I2C,1 + ACK
27.181199083333333,I2C,255 + ACK
27.184794083333333,I2C,0 + ACK
27.188400916666666,I2C,0 + ACK
27.191995416666668,I2C,167 + NAK
27.210998833333335,I2C,Setup Read to [17] + ACK
27.214604833333333,I2C,7 + ACK
27.218199833333333,I2C,5 + ACK
27.221800833333333,I2C,78 + ACK
27.225402166666665,I2C,1 + ACK
27.229001916666668,I2C,255 + ACK
27.232608500000001,I2C,128 + ACK
27.236003499999999,I2C,0 + ACK
27.239601666666665,I2C,83 + ACK
27.294013499999998,I2C,Setup Read to [19] + ACK
27.297614166666666,I2C,7 + ACK
27.301220499999999,I2C,5 + ACK
27.304815500000000,I2C,76 + ACK
27.308422416666666,I2C,1 + ACK
27.312016499999999,I2C,255 + ACK
27.315617499999998,I2C,0 + ACK
27.319217583333334,I2C,0 + ACK
27.322828500000000,I2C,168 + NAK
27.329825499999998,I2C,Setup Read to [21] + ACK
27.333421333333334,I2C,7 + ACK
27.337026916666666,I2C,5 + ACK
27.340621916666667,I2C,77 + ACK
27.344222583333334,I2C,1 + ACK
27.347823583333334,I2C,255 + ACK
27.351424666666666,I2C,0 + ACK
27.355030249999999,I2C,0 + ACK
27.358625166666666,I2C,167 + NAK
27.367232416666667,I2C,Setup Read to [23] + ACK
27.370827416666668,I2C,7 + ACK
27.374429083333332,I2C,5 + ACK
27.378028749999999,I2C,77 + ACK
27.381629833333335,I2C,1 + ACK
27.385241499999999,I2C,255 + ACK
27.388830833333333,I2C,0 + ACK
27.392432333333332,I2C,0 + ACK
27.396042166666668,I2C,167 + NAK
27.410234916666667,I2C,Setup Read to [25] + ACK
27.413841083333335,I2C,7 + ACK
27.417437249999999,I2C,5 + ACK
27.421037083333335,I2C,77 + ACK
27.424637333333333,I2C,1 + ACK
27.428238416666666,I2C,255 + ACK
27.431844500000000,I2C,0 + ACK
27.435440333333332,I2C,0 + ACK
27.439046166666667,I2C,167 + NAK
27.463243500000001,I2C,Setup Read to [27] + ACK
27.466851166666668,I2C,7 + ACK
27.470447083333333,I2C,5 + ACK
27.474046916666666,I2C,77 + ACK
27.477647500000000,I2C,1 + ACK
27.481248166666667,I2C,255 + ACK
27.484854583333334,I2C,0 + ACK
27.488450416666666,I2C,0 + ACK
27.492050166666665,I2C,167 + NAK
27.511653500000001,I2C,Setup Read to [29] + ACK
27.515254166666665,I2C,7 + ACK
27.518854916666665,I2C,5 + ACK
27.522472499999999,I2C,77 + ACK
27.526056166666667,I2C,1 + ACK
27.529656666666668,I2C,255 + ACK
27.533257750000001,I2C,0 + ACK
27.536858166666665,I2C,0 + ACK
27.540258583333333,I2C,83 + NAK
27.564869333333334,I2C,Setup Read to [31] + ACK
27.568464916666667,I2C,7 + ACK
27.572064666666666,I2C,5 + ACK
27.575675583333332,I2C,77 + ACK
27.579265666666668,I2C,1 + ACK
27.582872333333334,I2C,255 + ACK
27.586468583333332,I2C,0 + ACK
27.590067999999999,I2C,0 + ACK
27.593668666666666,I2C,167 + NAK
27.610871833333334,I2C,Setup Read to [33] + ACK
27.614473416666666,I2C,7 + ACK
27.618073166666665,I2C,5 + ACK
27.621674250000002,I2C,77 + ACK
27.625280333333333,I2C,1 + ACK
27.628875250000000,I2C,255 + ACK
27.632476749999999,I2C,0 + ACK
27.636076583333335,I2C,0 + ACK
27.639675083333334,I2C,167 + NAK
27.662887250000001,I2C,Setup Read to [211] + ACK
27.666482999999999,I2C,7 + ACK
27.670082833333332,I2C,5 + ACK
27.673683583333332,I2C,58 + ACK
27.677284499999999,I2C,0 + ACK
27.680890500000000,I2C,18 + ACK
27.684486333333332,I2C,66 + ACK
27.688091833333335,I2C,0 + ACK
27.691687166666668,I2C,102 + NAK
27.711896333333332,I2C,Setup Write to [0] + ACK
27.715492250000000,I2C,9 + ACK
27.719097999999999,I2C,6 + ACK
27.722692666666667,I2C,211 + ACK
27.726293333333334,I2C,20 + ACK
27.729899583333335,I2C,134 + ACK
27.733495416666667,I2C,159 + ACK
27.737100999999999,I2C,2 + ACK
27.740696000000000,I2C,138 + ACK
27.744296666666667,I2C,3 + ACK
27.747897583333334,I2C,86 + ACK
27.763306083333333,I2C,Setup Write to [0] + ACK
27.766900750000001,I2C,5 + ACK
27.770502333333333,I2C,4 + ACK
27.774102333333332,I2C,132 + ACK
27.777702999999999,I2C,136 + ACK
27.781309416666666,I2C,19 + ACK
27.784904333333333,I2C,216 + ACK
27.810388750000001,I2C,Setup Read to [3] + ACK
27.813995250000001,I2C,7 + ACK
27.817591000000000,I2C,5 + ACK
27.821191166666665,I2C,78 + ACK
27.824791416666667,I2C,1 + ACK
27.828392500000000,I2C,255 + ACK
27.831998583333334,I2C,0 + ACK
27.835594416666666,I2C,0 + ACK
27.839200500000000,I2C,166 + NAK
27.864199166666666,I2C,Setup Read to [5] + ACK
27.867805416666666,I2C,7 + ACK
27.871400333333334,I2C,5 + ACK
27.875001166666667,I2C,78 + ACK
27.878602583333333,I2C,1 + ACK
27.882202333333332,I2C,255 + ACK
27.885808833333332,I2C,0 + ACK
27.889403083333335,I2C,0 + ACK
27.893004166666667,I2C,166 + NAK
27.911007416666667,I2C,Setup Read to [7] + ACK
27.914608999999999,I2C,7 + ACK
27.918208750000002,I2C,5 + ACK
27.921815833333334,I2C,77 + ACK
27.925410166666666,I2C,1 + ACK
27.929016499999999,I2C,255 + ACK
27.932612333333335,I2C,0 + ACK
27.936212166666667,I2C,0 + ACK
27.939816333333333,I2C,167 + NAK
27.964417416666667,I2C,Setup Read to [9] + ACK
27.968018333333333,I2C,7 + ACK
27.971625249999999,I2C,5 + ACK
27.975219416666668,I2C,78 + ACK
27.978825666666665,I2C,128 + NAK
27.982226583333333,I2C,33 + ACK
27.985821583333333,I2C,0 + ACK
27.989427333333332,I2C,0 + ACK
27.993022583333332,I2C,49 + NAK
28.011025916666668,I2C,Setup Read to [11] + ACK
28.014627583333333,I2C,7 + ACK
28.018227249999999,I2C,5 + ACK
28.021827916666666,I2C,77 + ACK
28.025434250000000,I2C,1 + ACK
28.029029333333334,I2C,255 + ACK
28.032631250000001,I2C,0 + ACK
28.036230583333332,I2C,0 + ACK
28.039579083333333,I2C,83 + NAK
28.072638916666666,I2C,Setup Read to [13] + ACK
28.076239083333334,I2C,7 + ACK
28.079837250000001,I2C,5 + ACK
28.083445833333332,I2C,77 + ACK
28.087041083333332,I2C,1 + ACK
28.090642249999998,I2C,255 + ACK
28.094242416666667,I2C,0 + ACK
28.097843083333334,I2C,0 + ACK
28.101449500000001,I2C,167 + NAK
28.111045499999999,I2C,Setup Read to [15] + ACK
28.114646666666665,I2C,7 + ACK
28.118246833333334,I2C,5 + ACK
28.121852833333332,I2C,77 + ACK
28.125447916666666,I2C,1 + ACK
28.129054583333332,I2C,255 + ACK
28.132650000000002,I2C,0 + ACK
28.136259333333335,I2C,0 + ACK
28.139854083333333,I2C,167 + NAK
28.164454416666668,I2C,Setup Read to [17] + ACK
28.168055416666668,I2C,7 + ACK
28.171667750000001,I2C,5 + ACK
28.175256416666667,I2C,78 + ACK
28.178863000000000,I2C,1 + ACK
28.182457750000001,I2C,255 + ACK
28.186058333333332,I2C,0 + ACK
28.189606500000000,I2C,0 + ACK
28.193259666666666,I2C,166 + NAK
28.211263416666668,I2C,Setup Read to [19] + ACK
28.214869499999999,I2C,7 + ACK
28.218464416666666,I2C,5 + ACK
28.222065083333334,I2C,76 + ACK
28.225666583333332,I2C,1 + ACK
